Sample in Buffer,Sample in Window,TRIGGER,i_system_wrapper/system_i/start_LD_0_start1,i_system_wrapper/system_i/format_9234_timestamp_0_out_0[63:0],i_system_wrapper/system_i/format_9234_timestamp_0_out_1[63:0],i_system_wrapper/system_i/format_9234_timestamp_0_waveform_0[11:0],i_system_wrapper/system_i/format_9234_timestamp_0_waveform_1[11:0],i_system_wrapper/system_i/format_9234_timestamp_0_o_ps_irq,i_system_wrapper/system_i/format_9234_timestamp_0_o_adc_valid_0,i_system_wrapper/system_i/format_9234_timestamp_0_o_adc_valid_1,i_system_wrapper/system_i/format_9234_timestamp_0_o_adc_enable_0,i_system_wrapper/system_i/format_9234_timestamp_0_o_adc_enable_1,i_system_wrapper/system_i/axi_ad9680_core_adc_data_0[63:0],i_system_wrapper/system_i/axi_ad9680_core_adc_data_1[63:0],i_system_wrapper/system_i/axi_ad9680_core_adc_valid_1,i_system_wrapper/system_i/axi_ad9680_core_adc_enable_1,i_system_wrapper/system_i/axi_ad9680_core_adc_valid_0,i_system_wrapper/system_i/axi_ad9680_core_adc_enable_0,i_system_wrapper/system_i/adc_fdb_1_1,i_system_wrapper/system_i/adc_fdb_1_2,i_system_wrapper/system_i/adc_fdb_1_3,i_system_wrapper/system_i/adc_fdb_1_4,i_system_wrapper/system_i/adc_fdb_1_5,i_system_wrapper/system_i/adc_fdb_1_6,i_system_wrapper/system_i/adc_fdb_1_7,i_system_wrapper/system_i/adc_fdb_1,i_system_wrapper/system_i/axi_ad9680_jesd_rx_data_tdata[127:0],i_system_wrapper/system_i/sysref_2,i_system_wrapper/system_i/axi_ad9680_jesd_sync,i_system_wrapper/system_i/adc_fda_1,i_system_wrapper/system_i/axi_ad9680_jesd_rx_data_tvalid,i_system_wrapper/system_i/axi_ad9680_jesd_rx_sof[3:0]
0,0,1,1,0,0,0,0,0,0,0,1,1,10133288142766112,3377704015233024,1,1,1,1,1,1,1,1,1,1,1,1,6040f0d00000ffff7070b0d000000000,0,1,1,1,f
1,1,0,1,0,0,0,0,0,0,0,1,1,16888687583297576,-3377699720003568,1,1,1,1,1,1,1,1,1,1,1,1,d0e0f020ffffff00e0c0907000000000,1,1,1,1,f
2,2,0,1,0,0,0,0,1,0,0,1,1,7881419609866292,6755472455303156,1,1,1,1,1,1,1,1,1,1,1,1,302080e0010100ff80c040e0ffff0000,1,1,1,1,f
3,3,0,1,0,0,0,0,1,0,0,1,1,15762804856586268,-3096254808850424,1,1,1,1,1,1,1,1,1,1,1,1,b0c0c0100000000110f0c08000ffffff,1,1,1,1,f
4,4,0,1,0,0,0,0,1,0,0,1,1,-8725792996458440,21392407469817848,1,1,1,1,1,1,1,1,1,1,1,1,6090f060ffffff004010901001010000,1,1,1,1,f
5,5,0,1,0,0,0,0,1,0,0,1,1,1407361997668320,12385105136844868,1,1,1,1,1,1,1,1,1,1,1,1,60b0a080ffffffff40f0004001000101,1,1,1,1,f
6,6,0,1,0,0,0,0,1,0,0,1,1,22518290196987908,-10977640056094696,1,1,1,1,1,1,1,1,1,1,1,1,f0803010fffffffff050b0a000010101,1,1,1,1,f
7,7,0,0,0,0,-5,8,1,1,1,1,1,22518255839084624,-10977605697601568,1,1,1,1,1,1,1,1,1,1,1,1,f0d0d0e0ffffffff00e0e0c001000000,1,1,1,1,f
8,8,0,0,-7881419609866293,6755472455303156,3,18,1,1,1,1,1,16888859386970216,-844558077460540,1,1,1,1,1,1,1,1,1,1,1,1,f0f0c0c0ffffffffe0e000e000000100,1,1,1,1,f
9,9,0,0,1,1,7,19,1,1,1,1,1,18014639031320624,-844472175493128,1,1,1,1,1,1,1,1,1,1,1,1,60a0f000ffffff0060f0c0a001000000,1,1,1,1,f
10,10,0,0,-15762804856586269,-3096254808850424,7,17,1,1,1,1,1,15762839218159672,-844437816016912,1,1,1,1,1,1,1,1,1,1,1,1,d0000020feffffffc0b080a001010101,1,1,1,1,f
11,11,0,0,2,2,3,12,1,1,1,1,1,24770055651721256,-10977622876225536,1,1,1,1,1,1,1,1,1,1,1,1,60f0b0c0fffefefe90e0001001010202,1,1,1,1,f
12,12,0,0,8725792996458439,21392407469817848,0,12,1,1,1,1,1,31525661254353000,-21110893840367672,1,1,1,1,1,1,1,1,1,1,1,1,60b0d0a0ffffffff30e0c02001000001,1,1,1,1,f
13,13,0,0,3,3,-2,11,1,1,1,1,1,28148013075529860,-10977811859963984,1,1,1,1,1,1,1,1,1,1,1,1,5010e0f0fffffefe80d0d08001010101,1,1,1,1,f
14,14,0,0,-1407361997668321,12385105136844868,-2,6,1,1,1,1,1,21392338751324232,-10977605696815128,1,1,1,1,1,1,1,1,1,1,1,1,90f050c0010000ff50f09010ffff0001,1,1,1,1,f
15,15,0,0,4,4,-10,-1,1,1,1,1,1,27022095988031584,-12103677406281796,1,1,1,1,1,1,1,1,1,1,1,1,103020c0ff000101203040000100ffff,1,1,1,1,f
16,16,0,0,-22518290196987909,-10977640056094696,-18,-7,1,1,1,1,1,-12103441176068028,28147755370479600,1,1,1,1,1,1,1,1,1,1,1,1,f0a09020fdfdfdfef030e04002030202,1,1,1,1,f
17,17,0,0,5,5,-21,-10,1,1,1,1,1,20266254154661824,-16888447058313104,1,1,1,1,1,1,1,1,1,1,1,1,806030e0fefefefd304090c002020202,0,1,1,1,f
18,18,0,0,-22518255839084625,-10977605697601568,-21,-8,1,1,1,1,1,52918171806990480,-36873870499315832,1,1,1,1,1,1,1,1,1,1,1,1,50607070fefefefe6030404002020202,0,1,1,1,f
19,19,0,0,6,6,-17,-6,1,1,1,1,1,39407115225530544,-26740565176680584,1,1,1,1,1,1,1,1,1,1,1,1,a0502010fefefefe4070a07002020202,0,1,1,1,f
20,20,0,0,-16888859386970217,-844558077460540,-16,-5,1,1,1,1,1,42784797764878480,-30118264896159844,1,1,1,1,1,1,1,1,1,1,1,1,00e01080fefdfefed0b0704002020202,0,1,1,1,f
21,21,0,0,7,7,-21,-10,1,1,1,1,1,40533066672242844,-24488782543126652,1,1,1,1,1,1,1,1,1,1,1,1,a060c0c00000fffe3090302000000102,0,1,1,1,f
22,22,0,0,-18014639031320625,-844472175493128,-27,-15,1,1,1,1,1,50666234552516752,-35747901870899296,1,1,1,1,1,1,1,1,1,1,1,1,70c02060ffff000040b0803001000000,0,1,1,1,f
23,23,0,0,8,8,-28,-13,1,1,1,1,1,3377854344331400,11259106441625520,1,1,1,1,1,1,1,1,1,1,1,1,d0702050ffffffff2090908001010101,0,1,1,1,f
24,24,0,0,-15762839218159673,-844437816016912,-22,-8,1,1,1,1,1,22518187117510668,-9851692903825384,1,1,1,1,1,1,1,1,1,1,1,1,5080c0f0ffffffff7010e0d001010000,0,1,1,1,f
25,25,0,0,9,9,-16,-1,1,1,1,1,1,20266627826450528,-3096375071277100,1,1,1,1,1,1,1,1,1,1,1,1,c0c020c0fdfdfefe00f070c003020201,0,1,1,1,f
26,26,0,0,-24770055651721257,-10977622876225536,-13,-2,1,1,1,1,1,25895989918826548,-12103557143527428,1,1,1,1,1,1,1,1,1,1,1,1,2030c040fffffefea0c010b001010202,0,1,1,1,f
27,27,0,0,10,10,-15,-3,1,1,1,1,1,54044002992521328,-40251535857746000,1,1,1,1,1,1,1,1,1,1,1,1,d02060e0fdfefefef09000d002020201,0,1,1,1,f
28,28,0,0,-31525661254353001,-21110893840367672,-15,-3,1,1,1,1,1,29273878622896300,-15481342767595632,1,1,1,1,1,1,1,1,1,1,1,1,90c020b0fffefefd8050e02001020203,0,1,1,1,f
29,29,0,0,11,11,-17,-1,1,1,1,1,1,52918000004628596,-39125532870639688,1,1,1,1,1,1,1,1,1,1,1,1,c0f0e08000000000e0e010a0ffff0000,0,1,1,1,f
30,30,0,0,-28148013075529861,-10977811859963984,-15,-4,1,1,1,1,1,27022233431441608,-7600163681403028,1,1,1,1,1,1,1,1,1,1,1,1,70707080000000004060400000000000,0,1,1,1,f
31,31,0,0,12,12,-17,-4,1,1,1,1,1,-1970359196450776,13511056583819296,1,1,1,1,1,1,1,1,1,1,1,1,50d0e04000ffff00a010c07000010000,0,1,1,1,f
32,32,0,0,-21392338751324233,-10977605696815128,-15,-1,1,1,1,1,1,4503702707634176,7881419608817696,1,1,1,1,1,1,1,1,1,1,1,1,30c030100000010180e0b0e000ffffff,0,1,1,1,f
33,33,0,0,13,13,-15,-1,1,1,1,1,1,11259291129348124,5910927265759248,1,1,1,1,1,1,1,1,1,1,1,1,a0501000000000006090c0c000000000,1,1,1,1,f
34,34,0,0,-27022095988031585,-12103677406281796,-11,0,1,1,1,1,1,9288644165435384,3377905883938884,1,1,1,1,1,1,1,1,1,1,1,1,20c0d0c001000000d0100010ff000000,1,1,1,1,f
35,35,0,0,14,14,-13,-1,1,1,1,1,1,6755554063024176,11259084968034304,1,1,1,1,1,1,1,1,1,1,1,1,f0a0e08000010101a0403060ffffffff,1,1,1,1,f
36,36,0,0,12103441176068027,28147755370479600,-16,-6,1,1,1,1,1,-3377682540658684,20266404485005360,1,1,1,1,1,1,1,1,1,1,1,1,d0606010ffffff004090407001010100,1,1,1,1,f
37,37,0,0,15,15,-23,-10,1,1,1,1,1,-6474126331150376,16888945287102560,1,1,1,1,1,1,1,1,1,1,1,1,b0b00080ff000100b0f0e05000ffff00,1,1,1,1,f
38,38,0,0,-20266254154661825,-16888447058313104,-27,-14,1,1,1,1,1,22518427638824988,-3096392250163196,1,1,1,1,1,1,1,1,1,1,1,1,2070d020fffefefff010007001020201,1,1,1,1,f
39,39,0,0,16,16,-25,-16,1,1,1,1,1,12666361066553364,-5629310551457760,1,1,1,1,1,1,1,1,1,1,1,1,0050c0f0010100ff90a03030ffff0001,1,1,1,1,f
40,40,0,0,-52918171806990481,-36873870499315832,-28,-16,1,1,1,1,1,34903464056193116,-15481548925763640,1,1,1,1,1,1,1,1,1,1,1,1,9070c070ffffff007040c03001010000,1,1,1,1,f
41,41,0,0,17,17,-29,-19,1,1,1,1,1,-7599927449616308,18014759289946108,1,1,1,1,1,1,1,1,1,1,1,1,10006040684b230640706090a2c2e9fe,1,1,1,1,f
42,42,0,0,-39407115225530545,-26740565176680584,-34,-20,1,1,1,1,1,25896041457909772,-7599974696091620,1,1,1,1,1,1,1,1,1,1,1,1,f0f0f0f07f7f7f7b000000908080808b,1,1,1,1,f
43,43,0,0,18,18,-33,-21,1,1,1,1,1,-1688585303258234972,1874643960884363664,1,1,1,1,1,1,1,1,1,1,1,1,f0f0f0f07f7f7f7f0000000080808080,1,1,1,1,f
44,44,0,0,-42784797764878481,-30118264896159844,-31,-17,1,1,1,1,1,-2305596714850917660,2304752277035687676,1,1,1,1,1,1,1,1,1,1,1,1,f0f0f0f07f7f7f7f0000000080808080,1,1,1,1,f
45,45,0,0,19,19,-26,-10,1,1,1,1,1,-2305596714850918400,2304752277035687932,1,1,1,1,1,1,1,1,1,1,1,1,f0f0f0f07f7f7f7f0000000080808080,1,1,1,1,f
46,46,0,0,-40533066672242845,-24488782543126652,-19,-6,1,1,1,1,1,-2305596714850918400,2304752277035687932,1,1,1,1,1,1,1,1,1,1,1,1,f0f0f0f07f7f7f7f0000000080808080,1,1,1,1,f
47,47,0,0,20,20,-13,-3,1,1,1,1,1,-2305596714850918400,2304752277035687932,1,1,1,1,1,1,1,1,1,1,1,1,f0f0f0f07f7f7f7f0000000080808080,1,1,1,1,f
48,48,0,0,-50666234552516753,-35747901870899296,-15,-5,1,1,1,1,1,-2305596714850918400,2304752277035687932,1,1,1,1,1,1,1,1,1,1,1,1,30f0f0f0697f7f7fb000000088808080,1,1,1,1,f
49,49,0,0,21,21,-20,-10,1,1,1,1,1,-2305596714850918400,2304752277035687932,1,1,1,1,1,1,1,1,1,1,1,1,c0304000f9f4061e8060a0900b09f6cf,0,1,1,1,f
50,50,0,0,-3377854344331401,11259106441625520,-25,-17,1,1,1,1,1,-2149096627799793664,1894924710944972796,1,1,1,1,1,1,1,1,1,1,1,1,a0f0505002030100305070e0fdfeff05,0,1,1,1,f
51,51,0,0,22,22,-30,-18,1,1,1,1,1,207168164095128548,-112311762676611200,1,1,1,1,1,1,1,1,1,1,1,1,2060d080fcfeff01f0f0a060030100ff,0,1,1,1,f
52,52,0,0,-22518187117510669,-9851692903825384,-30,-15,0,1,1,1,1,-50384480395067016,47288878424653844,1,1,1,1,1,1,1,1,1,1,1,1,30e05000f3f4f7fa2010d0300d0b0806,0,1,1,1,f
53,53,0,0,23,23,-25,-11,0,1,1,1,1,70932226709716952,-69524761629949856,1,1,1,1,1,1,1,1,1,1,1,1,c0a0a010f1f1f1f2003030a00f0f0f0e,0,1,1,1,f
54,54,0,0,-20266627826450529,-3096375071277100,-18,-4,0,1,1,1,1,236442021310759308,-230531059684147584,1,1,1,1,1,1,1,1,1,1,1,1,804010c0f2f2f2f170a0d0f00e0e0e0e,0,1,1,1,f
55,55,0,0,24,24,-10,5,0,1,1,1,1,270220152414143400,-256427650918581116,1,1,1,1,1,1,1,1,1,1,1,1,608090b0f2f2f2f2503010200e0e0e0e,0,1,1,1,f
56,56,0,0,-25895989918826549,-12103557143527428,0,15,0,1,1,1,1,260086898632164284,-242916680235942800,1,1,1,1,1,1,1,1,1,1,1,1,30001040f2f2f2f2a0c0a0a00e0e0e0e,0,1,1,1,f
57,57,0,0,25,25,10,25,0,1,1,1,1,257834978556248968,-245168411328054100,1,1,1,1,1,1,1,1,1,1,1,1,f0901080f3f3f3f20050e0500d0d0d0e,0,1,1,1,f
58,58,0,0,-54044002992521329,-40251535857746000,15,28,0,1,1,1,1,263464632711644072,-248546248489632624,1,1,1,1,1,1,1,1,1,1,1,1,60e060c0f2f2f3f320c040000e0d0d0d,0,1,1,1,f
59,59,0,0,26,26,11,18,0,1,1,1,1,234190839993598868,-217020621597115232,1,1,1,1,1,1,1,1,1,1,1,1,60906030f2f2f2f2604070900e0e0e0e,0,1,1,1,f
60,60,0,0,-29273878622896301,-15481342767595632,-4,3,0,1,1,1,1,254457158573228864,-245168308245431056,1,1,1,1,1,1,1,1,1,1,1,1,405060c0f1f1f1f1707030d00f0f0f0e,0,1,1,1,f
61,61,0,0,27,27,-19,-15,0,1,1,1,1,258960895644533668,-245168394148971380,1,1,1,1,1,1,1,1,1,1,1,1,90109060f2f2f1f160d040900e0e0f0f,0,1,1,1,f
62,62,0,0,-52918000004628597,-39125532870639688,-37,-30,0,1,1,1,1,278101520481518516,-265434936073716624,1,1,1,1,1,1,1,1,1,1,1,1,20a010d0f4f3f3f2d050a0100c0d0d0e,0,1,1,1,f
63,63,0,0,28,28,-47,-39,0,1,1,1,1,258961050266764260,-241790831870804904,1,1,1,1,1,1,1,1,1,1,1,1,3090d080f4f4f4f4902000600c0c0c0c,0,1,1,1,f
64,64,0,0,-27022233431441609,-7600163681403028,-52,-38,0,1,1,1,1,230813140272022404,-213642904696718156,1,1,1,1,1,1,1,1,1,1,1,1,202080e0f3f3f3f3c07020d00d0d0d0c,0,1,1,1,f
65,65,0,0,29,29,-48,-33,0,1,1,1,1,226309214220321560,-212516747084497632,1,1,1,1,1,1,1,1,1,1,1,1,3080d030f5f4f3f3e07030a00b0c0d0d,1,1,1,1,f
66,66,0,0,1970359196450775,13511056583819296,-45,-34,0,1,1,1,1,247701673232302900,-231657440643318536,1,1,1,1,1,1,1,1,1,1,1,1,00205060f5f5f5f5d0a070700b0b0b0b,1,1,1,1,f
67,67,0,0,30,30,-42,-29,0,1,1,1,1,213924401149379432,-194502365759079220,1,1,1,1,1,1,1,1,1,1,1,1,508090b0f4f4f4f4804030100c0c0c0c,1,1,1,1,f
68,68,0,0,-4503702707634177,7881419608817696,-37,-26,0,1,1,1,1,212798277896897244,-197879893674623656,1,1,1,1,1,1,1,1,1,1,1,1,30903010f5f4f4f4f060a0c00b0c0c0c,1,1,1,1,f
69,69,0,0,31,31,-36,-24,0,1,1,1,1,225183348674003716,-210264964451730132,1,1,1,1,1,1,1,1,1,1,1,1,70109050f6f6f5f5900060700a0b0b0b,1,1,1,1,f
70,70,0,0,-11259291129348125,5910927265759248,-37,-25,0,1,1,1,1,215050283873993520,-194502348577637116,1,1,1,1,1,1,1,1,1,1,1,1,6040a0e0f5f6f6f62080e0200b0a090a,1,1,1,1,f
71,71,0,0,32,32,-37,-25,0,1,1,1,1,190280107961090780,-171983938118156972,1,1,1,1,1,1,1,1,1,1,1,1,001040b0f4f4f4f4e0a070000c0c0c0c,1,1,1,1,f
72,72,0,0,-9288644165435385,3377905883938884,-36,-26,0,1,1,1,1,200413069677429384,-191124184990417480,1,1,1,1,1,1,1,1,1,1,1,1,d0d0d000f3f3f3f420f0e0c00d0c0c0c,1,1,1,1,f
73,73,0,0,33,33,-39,-27,0,1,1,1,1,231938851195323136,-215894584246338260,1,1,1,1,1,1,1,1,1,1,1,1,a0505080f3f3f3f3307060300d0d0d0d,1,1,1,1,f
74,74,0,0,-6755554063024177,11259084968034304,-40,-31,0,1,1,1,1,236442536723874608,-219272352688177920,1,1,1,1,1,1,1,1,1,1,1,1,2010d030f5f5f4f490e040e00b0b0c0c,1,1,1,1,f
75,75,0,0,34,34,-43,-30,0,1,1,1,1,237568574071767884,-222650189849756448,1,1,1,1,1,1,1,1,1,1,1,1,c05050d0f4f4f4f4707020c00c0c0c0b,1,1,1,1,f
76,76,0,0,3377682540658683,20266404485005360,-40,-27,0,1,1,1,1,208294746992411448,-195628111042904820,1,1,1,1,1,1,1,1,1,1,1,1,20400060f6f6f6f59080f0a00a0a0a0b,1,1,1,1,f
77,77,0,0,35,35,-37,-22,0,1,1,1,1,224057500306506480,-202383716644487884,1,1,1,1,1,1,1,1,1,1,1,1,10c090c0f6f5f5f5d02030f00a0b0b0a,1,1,1,1,f
78,78,0,0,6474126331150375,16888945287102560,-37,-24,0,1,1,1,1,190279970520302312,-177613386110927528,1,1,1,1,1,1,1,1,1,1,1,1,10902030f5f5f6f6b01080900b0b0a0a,1,1,1,1,f
79,79,0,0,36,36,-40,-31,0,1,1,1,1,194783741947413180,-178739423458558608,1,1,1,1,1,1,1,1,1,1,1,1,60d08090f5f4f4f4b01050300b0c0c0c,1,1,1,1,f
80,80,0,0,-22518427638824989,-3096392250163196,-44,-34,0,1,1,1,1,210546323460457124,-196753873505288820,1,1,1,1,1,1,1,1,1,1,1,1,50e030d0f5f5f6f560c0b0000b0a0a0b,1,1,1,1,f
81,81,0,0,37,37,-46,-32,0,1,1,1,1,210546598345966348,-191124580136321756,1,1,1,1,1,1,1,1,1,1,1,1,d08000e0f5f5f5f44080f0e00b0b0b0b,0,1,1,1,f
82,82,0,0,-12666361066553365,-5629310551457760,-35,-20,0,1,1,1,1,204916738027684544,-192250187978310284,1,1,1,1,1,1,1,1,1,1,1,1,00c0f060f5f4f4f5e0f0b0500b0b0b0b,0,1,1,1,f
83,83,0,0,38,38,-20,-4,0,1,1,1,1,202665144377672440,-183243091807765192,1,1,1,1,1,1,1,1,1,1,1,1,3010d070f6f6f5f5a0d010600a0a0b0b,0,1,1,1,f
84,84,0,0,-34903464056193117,-15481548925763640,-10,6,0,1,1,1,1,213924263704134356,-197879996755411624,1,1,1,1,1,1,1,1,1,1,1,1,7080b020f5f5f5f6705000e00b0b0b0a,0,1,1,1,f
85,85,0,0,39,39,-4,10,0,1,1,1,1,191405956327015128,-176487537744478884,1,1,1,1,1,1,1,1,1,1,1,1,d0b0a080f5f5f5f5303050500b0b0b0b,0,1,1,1,f
86,86,0,0,7599927449616307,18014759289946108,-4,6,0,1,1,1,1,206042792554660536,-189998491245937272,1,1,1,1,1,1,1,1,1,1,1,1,6080b020f8f7f6f6c09060e008090a0a,0,1,1,1,f
87,87,0,0,40,40,-9,2,0,1,1,1,1,201539158568862420,-183243040265536160,1,1,1,1,1,1,1,1,1,1,1,1,00805000f9f9f9f9a070701007070708,0,1,1,1,f
88,88,0,0,-25896041457909773,-7599974696091620,-12,-4,0,1,1,1,1,157628615521469112,-137080645864325752,1,1,1,1,1,1,1,1,1,1,1,1,2070b070f7f7f7f8c060f05009090808,0,1,1,1,f
89,89,0,0,41,41,-21,-9,0,1,1,1,1,137361833070428676,-125821097029075392,1,1,1,1,1,1,1,1,1,1,1,1,30e0c0e0f7f6f6f6d0102010090a0a0a,0,1,1,1,f
90,90,0,0,1688585303258234971,1874643960884363664,-25,-11,0,1,1,1,1,175642962485314068,-159598661176852964,1,1,1,1,1,1,1,1,1,1,1,1,1060a090f7f7f7f7b050307009090909,0,1,1,1,f
91,91,0,0,42,42,-26,-14,0,1,1,1,1,176769051375698564,-158472915892765256,1,1,1,1,1,1,1,1,1,1,1,1,f0103080f5f6f6f6e0c090200a0a0a0a,0,1,1,1,f
92,92,0,0,2305596714850917659,2304752277035687676,-26,-9,0,1,1,1,1,174517045399650908,-160724578263826972,1,1,1,1,1,1,1,1,1,1,1,1,a09060c0f5f5f5f5406030100b0b0b0b,0,1,1,1,f
93,93,0,0,43,43,-19,-3,0,1,1,1,1,195909538772419208,-180991137370276448,1,1,1,1,1,1,1,1,1,1,1,1,e06010f0f6f6f6f55080b0100a0a0a0b,0,1,1,1,f
94,94,0,0,2305596714850918399,2304752277035687932,-14,-1,0,1,1,1,1,202665110014788292,-186620774346850960,1,1,1,1,1,1,1,1,1,1,1,1,20d04080f9f8f8f7d010e0b007080809,0,1,1,1,f
95,95,0,0,44,44,-15,-4,0,1,1,1,1,185776370891883204,-164102552868815492,1,1,1,1,1,1,1,1,1,1,1,1,1040d090f7f7f7f8d050c01009090808,0,1,1,1,f
96,96,0,0,2305596714850918399,2304752277035687932,-18,-8,0,1,1,1,1,140739704595677804,-123569486198407712,1,1,1,1,1,1,1,1,1,1,1,1,f0c07040f7f7f7f7102080d009090909,0,1,1,1,f
97,97,0,0,45,45,-24,-11,0,1,1,1,1,176768845211501060,-160724612622778844,1,1,1,1,1,1,1,1,1,1,1,1,60f090a0f8f7f7f7b030401008090909,1,1,1,1,f
98,98,0,0,2305596714850918399,2304752277035687932,-29,-20,0,1,1,1,1,163257994792927860,-144961876489601584,1,1,1,1,1,1,1,1,1,1,1,1,20d090f0f9f9f9f86020701007070708,1,1,1,1,f
99,99,0,0,46,46,-40,-30,0,1,1,1,1,156502612530692676,-137080525601571352,1,1,1,1,1,1,1,1,1,1,1,1,00706080f6f6f7f8d01010000a0a0908,1,1,1,1,f
100,100,0,0,2305596714850918399,2304752277035687932,-48,-36,0,1,1,1,1,132858147543712260,-123569211314995652,1,1,1,1,1,1,1,1,1,1,1,1,9060b000f7f7f6f6609050d009090a0a,1,1,1,1,f
101,101,0,0,47,47,-49,-36,0,1,1,1,1,194783449880723968,-179865134379237856,1,1,1,1,1,1,1,1,1,1,1,1,30204050f7f7f7f7b0b0a07009090909,1,1,1,1,f
102,102,0,0,2305596714850918399,2304752277035687932,-44,-28,0,1,1,1,1,168887614589633204,-151717379013018240,1,1,1,1,1,1,1,1,1,1,1,1,c0b0e010f6f6f6f7201000c00a0a0a09,1,1,1,1,f
103,103,0,0,48,48,-34,-20,0,1,1,1,1,174517148480701020,-158472847171191340,1,1,1,1,1,1,1,1,1,1,1,1,10d0c0b0f7f6f6f6003020200a0a0a0a,1,1,1,1,f
104,104,0,0,2149096627799793663,1894924710944972796,-29,-13,0,1,1,1,1,182398550909387376,-166354266779746876,1,1,1,1,1,1,1,1,1,1,1,1,f0c04070f8f8f8f7d030f09007080809,1,1,1,1,f
105,105,0,0,49,49,-27,-14,0,1,1,1,1,180146785455964808,-160724732886319700,1,1,1,1,1,1,1,1,1,1,1,1,90509060f7f7f7f87090f03009090808,1,1,1,1,f
106,106,0,0,-207168164095128549,-112311762676611200,-30,-18,0,1,1,1,1,140739738955678308,-126947203098804772,1,1,1,1,1,1,1,1,1,1,1,1,a020d020f8f9f8f820f0200008070809,1,1,1,1,f
107,107,0,0,50,50,-33,-26,0,1,1,1,1,170013514490708492,-151717396189217256,1,1,1,1,1,1,1,1,1,1,1,1,00e0c030f8f7f7f80010e07009090808,1,1,1,1,f
108,108,0,0,50384480395067015,47288878424653844,-42,-30,0,1,1,1,1,146369169767006784,-132576599551443448,1,1,1,1,1,1,1,1,1,1,1,1,3060a0d0f7f7f7f7c08030f009090908,1,1,1,1,f
109,109,0,0,51,51,-48,-35,0,1,1,1,1,162132077703594524,-143835942221709812,1,1,1,1,1,1,1,1,1,1,1,1,10a03070f9f8f8f7e050208007080909,1,1,1,1,f
110,110,0,0,-70932226709716953,-69524761629949856,-51,-37,0,1,1,1,1,175642996846101052,-158472778450141708,1,1,1,1,1,1,1,1,1,1,1,1,30b0b070f9f9f9f9905060b007070707,1,1,1,1,f
111,111,0,0,52,52,-47,-30,0,1,1,1,1,141865673223045728,-124695437645120036,1,1,1,1,1,1,1,1,1,1,1,1,e0e000a0f7f7f8f8f0e090f008080807,1,1,1,1,f
112,112,0,0,-236442021310759309,-230531059684147584,-38,-20,0,1,1,1,1,136235898803585516,-122443345767367076,1,1,1,1,1,1,1,1,1,1,1,1,10600010f9f8f8f82090d0f008080808,1,1,1,1,f
113,113,0,0,53,53,-25,-7,0,1,1,1,1,161006126255833596,-146087742034346456,1,1,1,1,1,1,1,1,1,1,1,1,c0509050f8f9f9f9f080408007070707,0,1,1,1,f
114,114,0,0,-270220152414143401,-256427650918581116,-11,8,0,1,1,1,1,146369341568582204,-124695506365383164,1,1,1,1,1,1,1,1,1,1,1,1,50804040f9f8f8f8e070c07007080808,0,1,1,1,f
115,115,0,0,54,54,-2,14,0,1,1,1,1,142991349783724512,-130324748195004844,1,1,1,1,1,1,1,1,1,1,1,1,7060d0c0f8f9f9f94070104008070707,0,1,1,1,f
116,116,0,0,-260086898632164285,-242916680235942800,1,15,0,1,1,1,1,141865707581211164,-120191872377225712,1,1,1,1,1,1,1,1,1,1,1,1,70209080f9f9f8f89000606007080808,0,1,1,1,f
117,117,0,0,55,55,1,12,0,1,1,1,1,148620832137282000,-135954230548300176,1,1,1,1,1,1,1,1,1,1,1,1,20900060f8f8f9f9a030c09008080707,0,1,1,1,f
118,118,0,0,-257834978556248969,-245168411328054100,-1,8,0,1,1,1,1,136236087786340888,-117939900763537888,1,1,1,1,1,1,1,1,1,1,1,1,10c05020f9f8f8f8f050a0c007080808,0,1,1,1,f
119,119,0,0,56,56,-5,7,0,1,1,1,1,155376437739651556,-141583953424220584,1,1,1,1,1,1,1,1,1,1,1,1,e0406050f8f9f9f9e08080c007070707,0,1,1,1,f
